
**** 12/06/23 21:57:06 ******* PSpice Lite (March 2016) ******* ID# 10813 ****

 ** Profile: "SCHEMATIC1-sjdf"  [ C:\Users\alena\AppData\Roaming\SPB_Data\max power transfer-PSpiceFiles\SCHEMATIC1\sjdf.sim ] 


 ****     CIRCUIT DESCRIPTION


******************************************************************************




** Creating circuit file "sjdf.cir" 
** WARNING: THIS AUTOMATICALLY GENERATED FILE MAY BE OVERWRITTEN BY SUBSEQUENT SIMULATIONS

*Libraries: 
* Profile Libraries :
* Local Libraries :
* From [PSPICE NETLIST] section of C:\Users\alena\AppData\Roaming\SPB_Data\cdssetup\OrCAD_PSpice\17.2.0\PSpice.ini file:
.lib "nomd.lib" 

*Analysis directives: 
.OPTIONS ADVCONV
.PROBE64 V(alias(*)) I(alias(*)) W(alias(*)) D(alias(*)) NOISE(alias(*)) 
.INC "..\SCHEMATIC1.net" 



**** INCLUDING SCHEMATIC1.net ****
* source MAX POWER TRANSFER
R_R1         N00156 N00163  6  
R_R2         N00163 N00167  3  
R_R3         N00167 N00171  2  
R_R4         0 N00163  12  
V_V1         N00156 0 10
V_V2         N00171 0 20
I_I1         0 N00167 DC 2  

**** RESUMING sjdf.cir ****
.END

**** 12/06/23 21:57:06 ******* PSpice Lite (March 2016) ******* ID# 10813 ****

 ** Profile: "SCHEMATIC1-sjdf"  [ C:\Users\alena\AppData\Roaming\SPB_Data\max power transfer-PSpiceFiles\SCHEMATIC1\sjdf.sim ] 


 ****     SMALL SIGNAL BIAS SOLUTION       TEMPERATURE =   27.000 DEG C


******************************************************************************



 NODE   VOLTAGE     NODE   VOLTAGE     NODE   VOLTAGE     NODE   VOLTAGE


(N00156)   10.0000 (N00163)   14.3700 (N00167)   20.1480 (N00171)   20.0000 




    VOLTAGE SOURCE CURRENTS
    NAME         CURRENT

    V_V1         7.284E-01
    V_V2         7.407E-02

    TOTAL POWER DISSIPATION  -8.77E+00  WATTS



          JOB CONCLUDED

**** 12/06/23 21:57:06 ******* PSpice Lite (March 2016) ******* ID# 10813 ****

 ** Profile: "SCHEMATIC1-sjdf"  [ C:\Users\alena\AppData\Roaming\SPB_Data\max power transfer-PSpiceFiles\SCHEMATIC1\sjdf.sim ] 


 ****     JOB STATISTICS SUMMARY


******************************************************************************



  Total job time (using Solver 1)   =        0.00
