
**** 12/06/23 21:40:45 ******* PSpice Lite (March 2016) ******* ID# 10813 ****

 ** Profile: "SCHEMATIC1-sdj"  [ C:\Users\alena\AppData\Roaming\SPB_Data\ewjenf-PSpiceFiles\SCHEMATIC1\sdj.sim ] 


 ****     CIRCUIT DESCRIPTION


******************************************************************************




** Creating circuit file "sdj.cir" 
** WARNING: THIS AUTOMATICALLY GENERATED FILE MAY BE OVERWRITTEN BY SUBSEQUENT SIMULATIONS

*Libraries: 
* Profile Libraries :
* Local Libraries :
* From [PSPICE NETLIST] section of C:\Users\alena\AppData\Roaming\SPB_Data\cdssetup\OrCAD_PSpice\17.2.0\PSpice.ini file:
.lib "nomd.lib" 

*Analysis directives: 
.OPTIONS ADVCONV
.PROBE64 V(alias(*)) I(alias(*)) W(alias(*)) D(alias(*)) NOISE(alias(*)) 
.INC "..\SCHEMATIC1.net" 



**** INCLUDING SCHEMATIC1.net ****
* source EWJENF
V_V1         N00215 0 10
R_R1         N00222 N00226  1  
R_R2         N00215 N00222  2  
R_R3         N00226 N00230  4  
R_R4         0 N00222  4  
R_R5         0 N00226  6  
V_V2         N00230 0 20

**** RESUMING sdj.cir ****
.END

**** 12/06/23 21:40:45 ******* PSpice Lite (March 2016) ******* ID# 10813 ****

 ** Profile: "SCHEMATIC1-sdj"  [ C:\Users\alena\AppData\Roaming\SPB_Data\ewjenf-PSpiceFiles\SCHEMATIC1\sdj.sim ] 


 ****     SMALL SIGNAL BIAS SOLUTION       TEMPERATURE =   27.000 DEG C


******************************************************************************



 NODE   VOLTAGE     NODE   VOLTAGE     NODE   VOLTAGE     NODE   VOLTAGE


(N00215)   10.0000 (N00222)    8.1690 (N00226)    9.2958 (N00230)   20.0000 




    VOLTAGE SOURCE CURRENTS
    NAME         CURRENT

    V_V1        -9.155E-01
    V_V2        -2.676E+00

    TOTAL POWER DISSIPATION   6.27E+01  WATTS



          JOB CONCLUDED

**** 12/06/23 21:40:45 ******* PSpice Lite (March 2016) ******* ID# 10813 ****

 ** Profile: "SCHEMATIC1-sdj"  [ C:\Users\alena\AppData\Roaming\SPB_Data\ewjenf-PSpiceFiles\SCHEMATIC1\sdj.sim ] 


 ****     JOB STATISTICS SUMMARY


******************************************************************************



  Total job time (using Solver 1)   =        0.00
