
**** 12/08/23 00:58:55 ******* PSpice Lite (March 2016) ******* ID# 10813 ****

 ** Profile: "SCHEMATIC1-sdfn"  [ C:\Users\alena\AppData\Roaming\SPB_Data\full wave-PSpiceFiles\SCHEMATIC1\sdfn.sim ] 


 ****     CIRCUIT DESCRIPTION


******************************************************************************




** Creating circuit file "sdfn.cir" 
** WARNING: THIS AUTOMATICALLY GENERATED FILE MAY BE OVERWRITTEN BY SUBSEQUENT SIMULATIONS

*Libraries: 
* Profile Libraries :
* Local Libraries :
* From [PSPICE NETLIST] section of C:\Users\alena\AppData\Roaming\SPB_Data\cdssetup\OrCAD_PSpice\17.2.0\PSpice.ini file:
.lib "nomd.lib" 

*Analysis directives: 
.TRAN  0 0.08 0 
.OPTIONS ADVCONV
.PROBE64 V(alias(*)) I(alias(*)) W(alias(*)) D(alias(*)) NOISE(alias(*)) 
.INC "..\SCHEMATIC1.net" 



**** INCLUDING SCHEMATIC1.net ****
* source FULL WAVE
V_V2         N01227 N01233  
+SIN 0 230 50 0 0 0
D_D1         N01227 N01237 D1N4007 
D_D2         0 N01227 D1N4007 
D_D3         N01233 N01237 D1N4007 
D_D4         0 N01233 D1N4007 
R_R1         0 N01237  50  

**** RESUMING sdfn.cir ****
.END

**** 12/08/23 00:58:55 ******* PSpice Lite (March 2016) ******* ID# 10813 ****

 ** Profile: "SCHEMATIC1-sdfn"  [ C:\Users\alena\AppData\Roaming\SPB_Data\full wave-PSpiceFiles\SCHEMATIC1\sdfn.sim ] 


 ****     Diode MODEL PARAMETERS


******************************************************************************




               D1N4007         D1N4001         
          IS   14.110000E-09   14.110000E-09 
           N    1.984           1.984        
         IKF   94.81           94.81         
          BV    1.500000E+03   75            
         IBV   10.000000E-06   10.000000E-06 
          RS     .03389          .03389      
          TT    5.700000E-06    5.700000E-06 
         CJO   25.890000E-12   25.890000E-12 
          VJ     .3245           .3245       
           M     .44             .44         


**** 12/08/23 00:58:55 ******* PSpice Lite (March 2016) ******* ID# 10813 ****

 ** Profile: "SCHEMATIC1-sdfn"  [ C:\Users\alena\AppData\Roaming\SPB_Data\full wave-PSpiceFiles\SCHEMATIC1\sdfn.sim ] 


 ****     INITIAL TRANSIENT SOLUTION       TEMPERATURE =   27.000 DEG C


******************************************************************************



 NODE   VOLTAGE     NODE   VOLTAGE     NODE   VOLTAGE     NODE   VOLTAGE


(N01227) 1.121E-18 (N01233) 1.121E-18 (N01237)-112.4E-24 




    VOLTAGE SOURCE CURRENTS
    NAME         CURRENT

    V_V2         0.000E+00

    TOTAL POWER DISSIPATION   0.00E+00  WATTS



          JOB CONCLUDED

**** 12/08/23 00:58:55 ******* PSpice Lite (March 2016) ******* ID# 10813 ****

 ** Profile: "SCHEMATIC1-sdfn"  [ C:\Users\alena\AppData\Roaming\SPB_Data\full wave-PSpiceFiles\SCHEMATIC1\sdfn.sim ] 


 ****     JOB STATISTICS SUMMARY


******************************************************************************



  Total job time (using Solver 1)   =         .05
